
16:03:38.223 设备接收:01 03 08 13 8B 08 40 FF F5 08 40 C9 57
16:03:38.236 设备发送:01 03 04 8D 00 05 14 D2
16:03:43.252 设备接收:01 03 0A 09 1A 0B D5 00 00 00 00 00 00 82 87
16:03:43.268 设备发送:01 03 04 98 00 05 05 16
16:03:48.254 设备接收:01 03 0A 09 1C 0B D0 00 00 00 00 00 00 FC 27
16:03:48.270 设备发送:01 03 04 A3 00 05 74 DB
16:03:53.276 设备接收:01 03 0A 09 22 0B D2 00 00 00 00 00 00 C7 86
16:03:53.292 设备发送:01 03 06 84 00 04 04 A8
16:03:58.293 设备接收:01 03 08 00 00 C9 B7 00 13 57 37 FE 77
16:03:58.309 设备发送:01 03 04 04 00 01 C4 FB
16:04:03.312 设备接收:01 03 02 00 02 39 85
16:04:03.327 设备发送:01 03 05 84 00 0F 45 2B
16:04:08.348 设备接收:01 03 1E 19 98 02 E4 01 E5 19 38 02 48 01 79 18 46 00 74 00 48 13 36 00 79 00 3B 19 96 01 B6 01 1F 77 78
16:04:08.364 设备发送:01 03 05 93 00 0F F5 2F
16:04:13.352 设备接收:01 03 1E 1A EA 02 26 01 7B 1B 7C 01 75 01 06 1E 48 01 73 01 1F 04 DD 00 00 00 00 04 E2 00 00 00 00 97 1F
16:04:13.383 设备发送:01 03 05 A2 00 0F A4 E0
16:04:18.376 设备接收:01 03 1E 00 0A 00 00 00 00 00 00 00 00 00 00 00 00 00 00 00 00 00 00 00 00 00 00 00 00 00 00 00 00 58 B7
16:04:18.407 设备发送:01 03 05 B1 00 03 55 20
16:04:23.423 设备接收:01 03 06 00 00 00 00 00 00 21 75
16:04:23.438 设备发送:01 03 04 2B 00 01 F5 32
16:04:28.436 设备接收:01 03 02 02 E0 B8 AC
16:04:28.451 设备发送:01 03 04 20 00 01 84 F0
16:04:33.444 设备接收:01 03 02 00 25 79 9F
16:04:33.474 设备发送:01 03 04 05 00 01 95 3B
16:04:38.450 设备接收:01 03 02 00 00 B8 44
16:04:38.477 设备发送:02 03 04 84 00 04 05 23
16:04:43.479 设备接收:02 03 08 13 88 07 72 00 14 07 72 28 2F
16:04:43.510 设备发送:02 03 04 8D 00 05 14 E1
16:04:48.508 设备接收:02 03 0A 09 24 0A A6 00 00 00 00 00 00 1C 2E
16:04:48.524 设备发送:02 03 04 98 00 05 05 25
16:04:53.525 设备接收:02 03 0A 09 22 0A A7 00 00 00 00 00 00 27 4E
16:04:53.540 设备发送:02 03 04 A3 00 05 74 E8
16:04:58.567 设备接收:02 03 0A 09 2B 0A D2 00 00 00 00 00 00 69 D9
16:04:58.583 设备发送:02 03 06 84 00 04 04 9B
16:05:03.558 设备接收:02 03 08 00 00 D7 97 00 14 76 A6 1B 77
16:05:03.573 设备发送:02 03 04 04 00 01 C4 C8
16:05:08.587 设备接收:02 03 02 00 02 7D 85
16:05:08.603 设备发送:02 03 05 84 00 0F 45 18
16:05:13.615 设备接收:02 03 1E 1E 11 01 84 01 2B 18 29 00 75 00 48 1E 90 00 26 00 1E 18 33 02 C2 01 B5 18 9F 01 B6 01 14 90 FD
16:05:13.630 设备发送:02 03 05 93 00 0F F5 1C
16:05:18.614 设备接收:02 03 1E 19 9C 01 7A 00 F8 1F 12 01 71 01 25 20 BB 01 73 01 37 19 08 00 6E 00 47 00 00 00 04 00 00 D2 A0
16:05:18.629 设备发送:02 03 05 A2 00 0F A4 D3
16:05:23.650 设备接收:02 03 1E 00 00 00 00 00 00 00 00 00 00 00 00 00 00 00 00 00 00 00 00 00 00 00 00 00 00 00 00 00 00 6C BA
16:05:23.666 设备发送:02 03 05 B1 00 03 55 13
16:05:28.656 设备接收:02 03 06 00 00 00 00 00 00 35 85
16:05:28.674 设备发送:02 03 04 2B 00 01 F5 01
16:05:33.674 设备接收:02 03 02 02 E7 BD 6E
16:05:33.689 设备发送:02 03 04 20 00 01 84 C3
16:05:38.722 设备接收:02 03 02 00 40 FD B4
16:05:38.738 设备发送:02 03 04 05 00 01 95 08
16:05:43.710 设备接收:02 03 02 00 00 FC 44
16:05:43.726 设备发送:03 03 04 84 00 04 04 F2
16:05:48.752 设备接收:03 03 08 13 8D 05 51 FF E6 05 52 2C A9
16:05:48.768 设备发送:03 03 04 8D 00 05 15 30
16:05:53.767 设备接收:03 03 0A 09 29 07 A3 00 00 00 00 00 00 D2 A6
16:05:53.783 设备发送:03 03 04 98 00 05 04 F4
16:05:58.785 设备接收:03 03 0A 09 22 07 92 00 00 00 00 00 00 81 55
16:05:58.800 设备发送:03 03 04 A3 00 05 75 39
16:06:03.795 设备接收:03 03 0A 09 27 07 A9 00 00 00 00 00 00 34 C6
16:06:03.811 设备发送:03 03 06 84 00 04 05 4A
16:06:08.815 设备接收:03 03 08 00 00 BB 88 00 12 0F 0B 81 09
16:06:08.831 设备发送:03 03 04 04 00 01 C5 19
16:06:13.824 设备接收:03 03 02 00 02 40 45
16:06:13.856 设备发送:03 03 05 84 00 0F 44 C9
16:06:18.862 设备接收:03 03 1E 15 56 00 6B 00 3A 19 2A 01 B3 01 18 19 20 02 C5 01 C8 19 BF 00 BF 00 7E 18 F2 00 6B 00 44 95 A2
16:06:18.877 设备发送:03 03 05 93 00 0F F4 CD
16:06:23.886 设备接收:03 03 1E 19 1F 00 47 00 2D 0F D9 00 41 00 1A 18 A6 00 33 00 20 15 F2 02 6B 01 5B 04 85 00 04 00 00 10 6D
16:06:23.902 设备发送:03 03 05 A2 00 0F A5 02
16:06:28.925 设备接收:03 03 1E 00 05 00 00 00 00 00 04 00 02 00 00 00 00 00 00 00 00 00 00 00 00 00 00 00 00 00 00 00 00 D0 6D
16:06:28.940 设备发送:03 03 05 B1 00 03 54 C2
16:06:33.940 设备接收:03 03 06 00 00 00 00 00 00 38 15
16:06:33.956 设备发送:03 03 04 2B 00 01 F4 D0
16:06:38.943 设备接收:03 03 02 02 E7 80 AE
16:06:38.959 设备发送:03 03 04 20 00 01 85 12
16:06:43.971 设备接收:03 03 02 00 35 01 93
16:06:43.985 设备发送:03 03 04 05 00 01 94 D9
16:06:48.998 设备接收:03 03 02 00 00 C1 84
16:06:49.013 设备发送:04 03 04 84 00 04 05 45
16:06:54.003 设备接收:04 03 08 13 8A 01 F2 00 10 01 F6 56 DD
16:06:54.019 设备发送:04 03 04 8D 00 05 14 87
16:06:59.040 设备接收:04 03 0A 09 38 02 C6 00 00 00 00 00 00 EC 88
16:06:59.056 设备发送:04 03 04 98 00 05 05 43
16:07:04.051 设备接收:04 03 0A 09 31 02 C1 00 00 00 00 00 00 F0 18
16:07:04.069 设备发送:04 03 04 A3 00 05 74 8E
16:07:09.053 设备接收:04 03 0A 09 33 02 C5 00 00 00 00 00 00 AC B8
16:07:09.083 设备发送:04 03 06 84 00 04 04 FD
16:07:14.082 设备接收:04 03 08 00 00 20 09 00 02 EC AD 73 C7
16:07:14.114 设备发送:04 03 04 04 00 01 C4 AE
16:07:19.115 设备接收:04 03 02 00 02 F5 85
16:07:19.131 设备发送:04 03 05 84 00 0F 45 7E
16:07:24.151 设备接收:04 03 1E 1B F5 01 6B 01 04 1B 33 01 68 00 FA 00 0D 00 00 00 00 00 00 00 00 00 00 00 00 00 00 00 00 05 1E
16:07:24.167 设备发送:04 03 05 93 00 0F F5 7A
16:07:29.171 设备接收:04 03 1E 00 00 00 00 00 00 00 00 00 00 00 00 00 00 00 00 00 00 00 00 00 00 00 00 00 00 00 00 00 00 04 BB
16:07:29.187 设备发送:04 03 05 A2 00 0F A4 B5
16:07:34.163 设备接收:04 03 1E 00 00 00 00 00 00 00 00 00 00 00 00 00 00 00 00 00 00 00 00 00 00 00 00 00 00 00 00 00 00 04 BB
16:07:34.195 设备发送:04 03 05 B1 00 03 55 75
16:07:39.199 设备接收:04 03 06 00 00 00 00 00 00 1E 25
16:07:39.231 设备发送:04 03 04 2B 00 01 F5 67
16:07:44.218 设备接收:04 03 02 02 5B 34 DF
16:07:44.234 设备发送:04 03 04 20 00 01 84 A5
16:07:49.231 设备接收:04 03 02 00 19 B5 8E
16:07:49.263 设备发送:04 03 04 05 00 01 95 6E
16:07:54.254 设备接收:04 03 02 00 00 74 44
16:07:54.269 设备发送:14 03 00 09 00 06 17 0F
16:07:59.278 设备接收:14 03 0C 11 17 07 15 27 DD 00 3E 0B 59 00 00 C2 BC
16:07:59.293 设备发送:01 03 04 84 00 04 05 10
16:08:04.323 设备接收:01 03 08 13 86 07 C7 FF F9 07 C7 24 E7
16:08:04.338 设备发送:01 03 04 8D 00 05 14 D2

