
16:19:28.694 设备接收:01 03 08 13 86 05 F6 00 1B 05 F6 08 57
16:19:28.709 设备发送:01 03 04 8D 00 05 14 D2
16:19:33.697 设备接收:01 03 0A 09 2B 08 80 00 00 00 00 00 00 9E 06
16:19:33.712 设备发送:01 03 04 98 00 05 05 16
16:19:38.717 设备接收:01 03 0A 09 2B 08 7B 00 00 00 00 00 00 D4 C9
16:19:38.748 设备发送:01 03 04 A3 00 05 74 DB
16:19:43.752 设备接收:01 03 0A 09 2E 08 8B 00 00 00 00 00 00 1B 96
16:19:43.768 设备发送:01 03 06 84 00 04 04 A8
16:19:48.768 设备接收:01 03 08 00 00 C3 10 00 13 2F 93 E8 BF
16:19:48.784 设备发送:01 03 04 04 00 01 C4 FB
16:19:53.781 设备接收:01 03 02 00 02 39 85
16:19:53.796 设备发送:01 03 05 84 00 0F 45 2B
16:19:58.805 设备接收:01 03 1E 19 B7 02 17 01 60 19 90 01 AB 01 17 1E E3 00 4A 00 3A 14 2B 00 54 00 2B 19 07 01 44 00 CF D7 B7
16:19:58.820 设备发送:01 03 05 93 00 0F F5 2F
16:20:03.825 设备接收:01 03 1E 1B 44 01 8D 01 15 1A E5 01 11 00 BC 1E 72 01 09 00 CF 04 F8 00 00 00 00 04 FD 00 00 00 00 22 EA
16:20:03.855 设备发送:01 03 05 A2 00 0F A4 E0
16:20:08.847 设备接收:01 03 1E 00 0A 00 00 00 00 00 00 00 00 00 00 00 00 00 00 00 00 00 00 00 00 00 00 00 00 00 00 00 00 58 B7
16:20:08.863 设备发送:01 03 05 B1 00 03 55 20
16:20:13.876 设备接收:01 03 06 00 00 00 00 00 00 21 75
16:20:13.892 设备发送:01 03 04 2B 00 01 F5 32
16:20:18.870 设备接收:01 03 02 02 DF F8 BC
16:20:18.886 设备发送:01 03 04 20 00 01 84 F0
16:20:23.892 设备接收:01 03 02 00 23 F9 9D
16:20:23.908 设备发送:01 03 04 05 00 01 95 3B
16:20:28.922 设备接收:01 03 02 00 00 B8 44
16:20:28.938 设备发送:02 03 04 84 00 04 05 23
16:20:33.942 设备接收:02 03 08 13 8B 05 28 FF EB 05 28 C3 BF
16:20:33.957 设备发送:02 03 04 8D 00 05 14 E1
16:20:38.945 设备接收:02 03 0A 09 37 07 69 00 00 00 00 00 00 3B 8B
16:20:38.961 设备发送:02 03 04 98 00 05 05 25
16:20:43.968 设备接收:02 03 0A 09 28 07 69 00 00 00 00 00 00 B7 BB
16:20:43.999 设备发送:02 03 04 A3 00 05 74 E8
16:20:48.998 设备接收:02 03 0A 09 31 07 93 00 00 00 00 00 00 4A 24
16:20:49.014 设备发送:02 03 06 84 00 04 04 9B
16:20:54.011 设备接收:02 03 08 00 00 D0 30 00 14 4C 6E 3C 2F
16:20:54.031 设备发送:02 03 04 04 00 01 C4 C8
16:20:59.039 设备接收:02 03 02 00 02 7D 85
16:20:59.070 设备发送:02 03 05 84 00 0F 45 18
16:21:04.076 设备接收:02 03 1E 1E C0 01 11 00 D7 16 9D 00 55 00 31 1D FB 00 1D 00 16 17 D0 01 F8 01 33 17 A2 01 43 00 C3 56 18
16:21:04.091 设备发送:02 03 05 93 00 0F F5 1C
16:21:09.097 设备接收:02 03 1E 19 00 01 0E 00 AD 1E 1C 01 0B 00 CE 20 13 01 0B 00 DB 17 12 00 54 00 31 00 00 00 04 00 00 F5 CC
16:21:09.113 设备发送:02 03 05 A2 00 0F A4 D3
16:21:14.101 设备接收:02 03 1E 00 00 00 00 00 00 00 00 00 00 00 00 00 00 00 00 00 00 00 00 00 00 00 00 00 00 00 00 00 00 6C BA
16:21:14.117 设备发送:02 03 05 B1 00 03 55 13
16:21:19.135 设备接收:02 03 06 00 00 00 00 00 00 35 85
16:21:19.150 设备发送:02 03 04 2B 00 01 F5 01
16:21:24.128 设备接收:02 03 02 02 E4 FD 6F
16:21:24.175 设备发送:02 03 04 20 00 01 84 C3
16:21:29.148 设备接收:02 03 02 00 3D 3D 95
16:21:29.165 设备发送:02 03 04 05 00 01 95 08
16:21:34.176 设备接收:02 03 02 00 00 FC 44
16:21:34.192 设备发送:03 03 04 84 00 04 04 F2
16:21:39.182 设备接收:03 03 08 13 88 03 B7 FF E5 03 B8 02 36
16:21:39.198 设备发送:03 03 04 8D 00 05 15 30
16:21:44.210 设备接收:03 03 0A 09 35 05 56 00 00 00 00 00 00 6E B0
16:21:44.225 设备发送:03 03 04 98 00 05 04 F4
16:21:49.230 设备接收:03 03 0A 09 2C 05 5A 00 00 00 00 00 00 05 20
16:21:49.261 设备发送:03 03 04 A3 00 05 75 39
16:21:54.276 设备接收:03 03 0A 09 2F 05 62 00 00 00 00 00 00 A8 13
16:21:54.292 设备发送:03 03 06 84 00 04 05 4A
16:21:59.271 设备接收:03 03 08 00 00 B5 85 00 11 EA 4A D7 46
16:21:59.287 设备发送:03 03 04 04 00 01 C5 19
16:22:04.287 设备接收:03 03 02 00 02 40 45
16:22:04.317 设备发送:03 03 05 84 00 0F 44 C9
16:22:09.315 设备接收:03 03 1E 14 E5 00 4D 00 29 18 AB 01 3F 00 C9 19 81 01 F2 01 45 19 B4 00 7F 00 53 1E 41 00 44 00 34 9D C4
16:22:09.331 设备发送:03 03 05 93 00 0F F4 CD
16:22:14.359 设备接收:03 03 1E 15 6F 00 3C 00 20 0F 2F 00 30 00 12 16 9C 00 24 00 15 14 99 02 0A 01 13 04 DC 00 07 00 00 77 3D
16:22:14.371 设备发送:03 03 05 A2 00 0F A5 02
16:22:19.367 设备接收:03 03 1E 00 06 00 00 00 00 00 04 00 01 00 00 00 00 00 00 00 00 00 00 00 00 00 00 00 00 00 00 00 00 A3 5C
16:22:19.445 设备发送:03 03 05 B1 00 03 54 C2
16:22:24.377 设备接收:03 03 06 00 00 00 00 00 00 38 15
16:22:24.392 设备发送:03 03 04 2B 00 01 F4 D0
16:22:29.409 设备接收:03 03 02 02 E3 81 6D
16:22:29.424 设备发送:03 03 04 20 00 01 85 12
16:22:34.413 设备接收:03 03 02 00 2D 01 99
16:22:34.429 设备发送:03 03 04 05 00 01 94 D9
16:22:39.444 设备接收:03 03 02 00 00 C1 84
16:22:39.460 设备发送:04 03 04 84 00 04 05 45
16:22:44.442 设备接收:04 03 08 13 87 01 57 00 0F 01 5D B6 7D
16:22:44.457 设备发送:04 03 04 8D 00 05 14 87
16:22:49.470 设备接收:04 03 0A 09 40 01 ED 00 00 00 00 00 00 35 9D
16:22:49.485 设备发送:04 03 04 98 00 05 05 43
16:22:54.488 设备接收:04 03 0A 09 3B 01 E8 00 00 00 00 00 00 76 6F
16:22:54.535 设备发送:04 03 04 A3 00 05 74 8E
16:22:59.521 设备接收:04 03 0A 09 3F 01 E9 00 00 00 00 00 00 54 6F
16:22:59.537 设备发送:04 03 06 84 00 04 04 FD
16:23:04.520 设备接收:04 03 08 00 00 1F 88 00 02 E6 4F CC 3F
16:23:04.568 设备发送:04 03 04 04 00 01 C4 AE
16:23:09.567 设备接收:04 03 02 00 02 F5 85
16:23:09.582 设备发送:04 03 05 84 00 0F 45 7E
16:23:14.583 设备接收:04 03 1E 1B 08 01 08 00 B6 1B 02 00 FE 00 B0 00 0C 00 00 00 00 00 00 00 00 00 00 00 00 00 00 00 00 B8 E1
16:23:14.598 设备发送:04 03 05 93 00 0F F5 7A
16:23:19.597 设备接收:04 03 1E 00 00 00 00 00 00 00 00 00 00 00 00 00 00 00 00 00 00 00 00 00 00 00 00 00 00 00 00 00 00 04 BB
16:23:19.628 设备发送:04 03 05 A2 00 0F A4 B5
16:23:24.626 设备接收:04 03 1E 00 00 00 00 00 00 00 00 00 00 00 00 00 00 00 00 00 00 00 00 00 00 00 00 00 00 00 00 00 00 04 BB
16:23:24.641 设备发送:04 03 05 B1 00 03 55 75
16:23:29.638 设备接收:04 03 06 00 00 00 00 00 00 1E 25
16:23:29.653 设备发送:04 03 04 2B 00 01 F5 67
16:23:34.644 设备接收:04 03 02 02 5D B4 DD
16:23:34.675 设备发送:04 03 04 20 00 01 84 A5
16:23:39.681 设备接收:04 03 02 00 19 B5 8E
16:23:39.697 设备发送:04 03 04 05 00 01 95 6E
16:23:44.697 设备接收:04 03 02 00 00 74 44
16:23:44.712 设备发送:14 03 00 09 00 06 17 0F
16:23:49.721 设备接收:14 03 0C 12 AA 05 DD 27 BF 00 3E 0C 4E 00 00 CF 6F
16:23:49.737 设备发送:01 03 04 84 00 04 05 10
16:23:54.730 设备接收:01 03 08 13 87 05 6A 00 1A 05 6B 58 E2
16:23:54.746 设备发送:01 03 04 8D 00 05 14 D2
16:23:56.32200

