
10:10:25.593 设备接收:01 03 0A 09 0E 23 AC 00 00 00 00 00 00 96 FE
10:10:25.609 设备发送:01 03 04 98 00 05 05 16
10:10:30.618 设备接收:01 03 0A 09 16 23 B5 00 00 00 00 00 00 B4 3F
10:10:30.629 设备发送:01 03 04 A3 00 05 74 DB
10:10:35.643 设备接收:01 03 0A 09 18 23 AD 00 00 00 00 00 00 60 5E
10:10:35.652 设备发送:01 03 06 84 00 04 04 A8
10:10:40.644 设备接收:01 03 08 00 00 18 91 00 12 EF 68 86 09
10:10:40.666 设备发送:01 03 04 04 00 01 C4 FB
10:10:45.672 设备接收:01 03 02 00 02 39 85
10:10:45.680 设备发送:01 03 05 84 00 0F 45 2B
10:10:50.682 设备接收:01 03 1E 19 12 05 7F 03 87 19 55 05 1B 03 4F 1E 48 05 65 04 2F 18 E4 05 6B 03 74 18 DB 05 81 03 80 CA 54
10:10:50.701 设备发送:01 03 05 93 00 0F F5 2F
10:10:55.705 设备接收:01 03 1E 1A CE 05 69 03 B6 1A 50 02 E2 01 F1 1D E1 02 C7 02 20 04 F0 00 00 00 00 04 F9 00 00 00 00 10 31
10:10:55.716 设备发送:01 03 05 A2 00 0F A4 E0
10:11:00.747 设备接收:01 03 1E 00 0A 00 00 00 00 00 00 00 00 00 00 00 00 00 00 00 00 00 00 00 00 00 00 00 00 00 00 00 00 58 B7
10:11:00.757 设备发送:01 03 05 B1 00 03 55 20
10:11:05.742 设备接收:01 03 06 00 00 00 00 00 00 21 75
10:11:05.762 设备发送:01 03 04 2B 00 01 F5 32
10:11:10.778 设备接收:01 03 02 02 48 B9 12
10:11:10.799 设备发送:01 03 04 20 00 01 84 F0
10:11:15.804 设备接收:01 03 02 00 25 79 9F
10:11:15.825 设备发送:01 03 04 05 00 01 95 3B
10:11:20.827 设备接收:01 03 02 00 00 B8 44
10:11:20.846 设备发送:02 03 04 84 00 04 05 23
10:11:25.824 设备接收:02 03 08 13 8C 1B 14 FF 5F 1B 16 2E 92
10:11:25.843 设备发送:02 03 04 8D 00 05 14 E1
10:11:30.854 设备接收:02 03 0A 09 1E 26 B3 00 00 00 00 00 00 70 03
10:11:30.865 设备发送:02 03 04 98 00 05 05 25
10:11:35.871 设备接收:02 03 0A 09 11 26 BD 00 00 00 00 00 00 DE 33
10:11:35.880 设备发送:02 03 04 A3 00 05 74 E8
10:11:40.889 设备接收:02 03 0A 09 2C 26 BB 00 00 00 00 00 00 B4 A2
10:11:40.935 设备发送:02 03 06 84 00 04 04 9B
10:11:45.903 设备接收:02 03 08 00 00 1A CC 00 14 08 18 CF 77
10:11:45.944 设备发送:02 03 04 04 00 01 C4 C8
10:11:50.936 设备接收:02 03 02 00 02 7D 85
10:11:50.957 设备发送:02 03 05 84 00 0F 45 18
10:11:55.968 设备接收:02 03 1E 1E 19 05 6A 04 2C 1E 1A 05 75 04 35 1D C2 02 AD 02 0A 18 F8 05 98 03 93 19 18 05 73 03 80 6A 24
10:11:55.989 设备发送:02 03 05 93 00 0F F5 1C
10:12:00.968 设备接收:02 03 1E 18 E2 02 E9 01 DA 1D D4 02 E1 02 33 1F 44 02 EB 02 56 1D EF 05 73 04 2D 00 00 00 04 00 00 F1 73
10:12:00.979 设备发送:02 03 05 A2 00 0F A4 D3
10:12:06.004 设备接收:02 03 1E 00 00 00 00 00 00 00 00 00 00 00 00 00 00 00 00 00 00 00 00 00 00 00 00 00 00 00 00 00 00 6C BA
10:12:06.024 设备发送:02 03 05 B1 00 03 55 13
10:12:11.015 设备接收:02 03 06 00 00 00 00 00 00 35 85
10:12:11.036 设备发送:02 03 04 2B 00 01 F5 01
10:12:16.045 设备接收:02 03 02 02 47 BD 16
10:12:16.053 设备发送:02 03 04 20 00 01 84 C3
10:12:21.042 设备接收:02 03 02 00 40 FD B4
10:12:21.084 设备发送:02 03 04 05 00 01 95 08
10:12:26.081 设备接收:02 03 02 00 00 FC 44
10:12:26.092 设备发送:03 03 04 84 00 04 04 F2
10:12:31.089 设备接收:03 03 08 13 86 17 FB FF 65 17 FD 30 37
10:12:31.108 设备发送:03 03 04 8D 00 05 15 30
10:12:36.121 设备接收:03 03 0A 09 1E 22 54 00 00 00 00 00 00 E4 7F
10:12:36.133 设备发送:03 03 04 98 00 05 04 F4
10:12:41.146 设备接收:03 03 0A 09 16 22 57 00 00 00 00 00 00 B0 BF
10:12:41.157 设备发送:03 03 04 A3 00 05 75 39
10:12:46.166 设备接收:03 03 0A 09 2D 22 67 00 00 00 00 00 00 A7 8D
10:12:46.178 设备发送:03 03 06 84 00 04 05 4A
10:12:51.166 设备接收:03 03 08 00 00 16 9E 00 11 AE 73 58 C5
10:12:51.209 设备发送:03 03 04 04 00 01 C5 19
10:12:56.191 设备接收:03 03 02 00 02 40 45
10:12:56.201 设备发送:03 03 05 84 00 0F 44 C9
10:13:01.219 设备接收:03 03 1E 19 09 05 78 03 81 18 C9 05 AF 03 9B 18 FC 05 8E 03 8D 18 3C 02 BB 01 B2 1D E9 05 8F 04 41 F6 F7
10:13:01.238 设备发送:03 03 05 93 00 0F F4 CD
10:13:06.237 设备发送:03 03 05 A2 00 0F A5 02
10:13:06.259 设备接收:03 03 1E 1D E3 02 D8 02 2D 15 60 02 CD 01 88 17 58 02 C0 01 A5 15 46 05 CE 03 29 04 FD 00 0D 00 01 39 1E
10:13:11.274 设备接收:03 03 1E 00 04 00 00 00 00 00 04 00 04 00 00 00 00 00 00 00 00 00 00 00 00 00 00 00 00 00 00 00 00 76 0A
10:13:11.292 设备发送:03 03 05 B1 00 03 54 C2
10:13:16.275 设备接收:03 03 06 00 00 00 00 00 00 38 15
10:13:16.285 设备发送:03 03 04 2B 00 01 F4 D0
10:13:21.284 设备接收:03 03 02 02 73 81 01
10:13:21.306 设备发送:03 03 04 20 00 01 85 12
10:13:26.307 设备接收:03 03 02 00 2B 81 9B
10:13:26.346 设备发送:03 03 04 05 00 01 94 D9
10:13:31.349 设备接收:03 03 02 00 00 C1 84
10:13:31.360 设备发送:04 03 04 84 00 04 05 45
10:13:36.338 设备接收:04 03 08 13 89 03 D6 00 03 03 DA E5 40
10:13:36.391 设备发送:04 03 04 8D 00 05 14 87
10:13:41.370 设备接收:04 03 0A 09 2D 05 79 00 00 00 00 00 00 11 35
10:13:41.378 设备发送:04 03 04 98 00 05 05 43
10:13:46.412 设备接收:04 03 0A 09 22 05 7B 00 00 00 00 00 00 73 05
10:13:46.423 设备发送:04 03 04 A3 00 05 74 8E
10:13:51.397 设备接收:04 03 0A 09 27 05 7F 00 00 00 00 00 00 09 95
10:13:51.449 设备发送:04 03 06 84 00 04 04 FD
10:13:56.423 设备接收:04 03 08 00 00 04 F7 00 02 DC 2C 88 97
10:13:56.468 设备发送:04 03 04 04 00 01 C4 AE
10:14:01.463 设备接收:04 03 02 00 02 F5 85
10:14:01.473 设备发送:04 03 05 84 00 0F 45 7E
10:14:06.474 设备接收:04 03 1E 1A A3 02 F6 02 05 1A 8B 02 DF 01 F3 00 0D 00 00 00 00 00 00 00 00 00 00 00 00 00 00 00 00 68 44
10:14:06.485 设备发送:04 03 05 93 00 0F F5 7A
10:14:11.497 设备接收:04 03 1E 00 00 00 00 00 00 00 00 00 00 00 00 00 00 00 00 00 00 00 00 00 00 00 00 00 00 00 00 00 00 04 BB
10:14:11.518 设备发送:04 03 05 A2 00 0F A4 B5
10:14:16.505 设备接收:04 03 1E 00 00 00 00 00 00 00 00 00 00 00 00 00 00 00 00 00 00 00 00 00 00 00 00 00 00 00 00 00 00 04 BB
10:14:16.546 设备发送:04 03 05 B1 00 03 55 75
10:14:21.550 设备接收:04 03 06 00 00 00 00 00 00 1E 25
10:14:21.561 设备发送:04 03 04 2B 00 01 F5 67
10:14:26.538 设备接收:04 03 02 02 38 74 F6
10:14:26.559 设备发送:04 03 04 20 00 01 84 A5
10:14:31.567 设备接收:04 03 02 00 19 B5 8E
10:14:31.607 设备发送:04 03 04 05 00 01 95 6E
10:14:36.581 设备接收:04 03 02 00 00 74 44
10:14:36.627 设备发送:14 03 00 09 00 06 17 0F
10:14:41.618 设备接收:14 03 0C 12 53 0E 00 27 E8 00 00 0C 11 00 00 69 52
10:14:41.636 设备发送:01 03 04 84 00 04 05 10
10:14:46.640 设备接收:01 03 08 13 88 19 4B FF C6 19 4B E1 4F
10:14:46.649 设备发送:01 03 04 8D 00 05 14 D2
10:14:51.645 设备接收:01 03 0A 09 18 24 32 00 00 00 00 00 00 4E B1
10:14:51.663 设备发送:01 03 04 98 00 05 05 16

