
13:57:55.546 设备接收:02 03 06 00 00 00 00 00 00 35 85
13:57:55.593 设备发送:02 03 04 2B 00 01 F5 01
13:58:00.586 设备接收:02 03 02 01 9E 7C 7C
13:58:00.601 设备发送:02 03 04 20 00 01 84 C3
13:58:05.584 设备接收:02 03 02 00 3D 3D 95
13:58:05.630 设备发送:02 03 04 05 00 01 95 08
13:58:10.639 设备接收:02 03 02 00 00 FC 44
13:58:10.654 设备发送:03 03 04 84 00 04 04 F2
13:58:15.646 设备接收:03 03 08 13 86 1B B4 FF C2 1B B4 10 20
13:58:15.662 设备发送:03 03 04 8D 00 05 15 30
13:58:20.659 设备接收:03 03 0A 09 30 27 8F 00 00 00 00 00 00 9A EC
13:58:20.674 设备发送:03 03 04 98 00 05 04 F4
13:58:25.686 设备接收:03 03 0A 09 25 26 D4 00 00 00 00 00 00 43 75
13:58:25.701 设备发送:03 03 04 A3 00 05 75 39
13:58:30.723 设备接收:03 03 0A 09 3B 26 AC 00 00 00 00 00 00 3A D2
13:58:30.738 设备发送:03 03 06 84 00 04 05 4A
13:58:35.724 设备接收:03 03 08 00 00 64 AE 00 11 C6 CA FC 61
13:58:35.739 设备发送:03 03 04 04 00 01 C5 19
13:58:40.730 设备接收:03 03 02 00 02 40 45
13:58:40.746 设备发送:03 03 05 84 00 0F 44 C9
13:58:45.750 设备接收:03 03 1E 18 F0 06 04 03 D7 18 9F 06 4D 03 F9 18 7C 06 3F 03 EA 17 93 03 03 01 D1 1D 7B 06 12 04 95 A4 A0
13:58:45.797 设备发送:03 03 05 93 00 0F F4 CD
13:58:50.788 设备接收:03 03 1E 1D 91 03 30 02 6A 15 81 03 17 01 B3 16 D0 03 09 01 C6 15 11 06 71 03 79 04 F3 00 0F 00 01 E3 4A
13:58:50.804 设备发送:03 03 05 A2 00 0F A5 02
13:58:55.805 设备接收:03 03 1E 00 04 00 00 00 00 00 04 00 05 00 00 00 00 00 00 00 00 00 00 00 00 00 00 00 00 00 00 00 00 66 DB
13:58:55.835 设备发送:03 03 05 B1 00 03 54 C2
13:59:00.832 设备接收:03 03 06 00 00 00 00 00 00 38 15
13:59:00.847 设备发送:03 03 04 2B 00 01 F4 D0
13:59:05.862 设备接收:03 03 02 01 9D 01 BD
13:59:05.878 设备发送:03 03 04 20 00 01 85 12
13:59:10.860 设备接收:03 03 02 00 36 41 92
13:59:10.876 设备发送:03 03 04 05 00 01 94 D9
13:59:15.905 设备接收:03 03 02 00 00 C1 84
13:59:15.921 设备发送:04 03 04 84 00 04 05 45
13:59:20.900 设备接收:04 03 08 13 89 04 37 00 0B 04 39 9A 9A
13:59:20.931 设备发送:04 03 04 8D 00 05 14 87
13:59:25.915 设备接收:04 03 0A 09 38 06 17 00 00 00 00 00 00 2C 76
13:59:25.930 设备发送:04 03 04 98 00 05 05 43
13:59:30.932 设备接收:04 03 0A 09 30 06 01 00 00 00 00 00 00 3C 77
13:59:30.963 设备发送:04 03 04 A3 00 05 74 8E
13:59:35.960 设备接收:04 03 0A 09 36 06 1D 00 00 00 00 00 00 CA 16
13:59:35.976 设备发送:04 03 06 84 00 04 04 FD
13:59:40.988 设备接收:04 03 08 00 00 11 24 00 02 E0 3C 1F 4C
13:59:41.004 设备发送:04 03 04 04 00 01 C4 AE
13:59:45.990 设备接收:04 03 02 00 02 F5 85
13:59:46.021 设备发送:04 03 05 84 00 0F 45 7E
13:59:51.029 设备接收:04 03 1E 1A 64 03 6A 02 4E 1A 69 03 54 02 40 00 0D 00 00 00 00 00 00 00 00 00 00 00 00 00 00 00 00 E7 6E
13:59:51.061 设备发送:04 03 05 93 00 0F F5 7A
13:59:56.049 设备接收:04 03 1E 00 00 00 00 00 00 00 00 00 00 00 00 00 00 00 00 00 00 00 00 00 00 00 00 00 00 00 00 00 00 04 BB
13:59:56.064 设备发送:04 03 05 A2 00 0F A4 B5
14:00:01.094 设备接收:04 03 1E 00 00 00 00 00 00 00 00 00 00 00 00 00 00 00 00 00 00 00 00 00 00 00 00 00 00 00 00 00 00 04 BB
14:00:01.110 设备发送:04 03 05 B1 00 03 55 75
14:00:06.075 设备接收:04 03 06 00 00 00 00 00 00 1E 25
14:00:06.107 设备发送:04 03 04 2B 00 01 F5 67
14:00:11.101 设备接收:04 03 02 01 FF 35 94
14:00:11.117 设备发送:04 03 04 20 00 01 84 A5
14:00:16.141 设备接收:04 03 02 00 19 B5 8E
14:00:16.156 设备发送:04 03 04 05 00 01 95 6E
14:00:21.144 设备接收:04 03 02 00 00 74 44
14:00:21.222 设备发送:14 03 00 09 00 06 17 0F
14:00:26.173 设备接收:14 03 0C 13 F5 08 53 27 90 00 00 08 8D 00 00 B9 EE
14:00:26.189 设备发送:01 03 04 84 00 04 05 10
14:00:31.199 设备接收:01 03 08 13 89 1E B2 FF C1 1E B2 1F 9F
14:00:31.215 设备发送:01 03 04 8D 00 05 14 D2
14:00:36.229 设备接收:01 03 0A 09 20 2B 9E 00 00 00 00 00 00 51 3A
14:00:36.245 设备发送:01 03 04 98 00 05 05 16
14:00:41.218 设备接收:01 03 0A 09 2A 2B 73 00 00 00 00 00 00 12 94
14:00:41.264 设备发送:01 03 04 A3 00 05 74 DB
14:00:46.255 设备接收:01 03 0A 09 29 2B 20 00 00 00 00 00 00 65 61
14:00:46.270 设备发送:01 03 06 84 00 04 04 A8
14:00:51.260 设备接收:01 03 08 00 00 6C E2 00 13 09 96 13 56
14:00:51.275 设备发送:01 03 04 04 00 01 C4 FB
14:00:56.286 设备接收:01 03 02 00 02 39 85
14:00:56.302 设备发送:01 03 05 84 00 0F 45 2B
14:01:01.326 设备接收:01 03 1E 18 E4 06 8D 04 2C 18 6A 06 9D 04 22 1D 6A 06 75 04 DC 18 B2 06 65 04 0B 18 73 06 A9 04 2B 19 5B
14:01:01.342 设备发送:01 03 05 93 00 0F F5 2F
14:04:41.691 设备接收:01 03 1E 1A 4A 06 77 04 5A 19 94 03 6B 02 3D 1D 88 03 55 02 85 04 DC 00 00 00 00 04 E3 00 00 00 00 0E 95
14:04:42.051 设备发送:01 03 05 A2 00 0F A4 E0
14:04:42.067 设备接收:01 03 1E 00 0A 00 00 00 00 00 00 00 00 00 00 00 00 00 00 00 00 00 00 00 00 00 00 00 00 00 00 00 00 58 B7
14:04:42.082 设备发送:01 03 05 B1 00 03 55 20
14:04:42.098 设备接收:01 03 06 00 00 00 00 00 00 21 75
14:04:42.144 设备发送:01 03 04 2B 00 01 F5 32
14:04:42.161 设备接收:01 03 02 01 88 B9 B2
14:04:42.176 设备发送:01 03 04 20 00 01 84 F0
14:04:42.192 设备接收:01 03 02 00 2B F8 5B
14:04:42.208 设备发送:01 03 04 05 00 01 95 3B
14:04:42.254 设备接收:01 03 02 00 00 B8 44
14:04:42.270 设备发送:02 03 04 84 00 04 05 23
14:04:42.286 设备接收:02 03 08 13 86 20 52 FF B5 20 52 3B 21
14:04:42.302 设备发送:02 03 04 8D 00 05 14 E1
14:04:42.317 设备接收:02 03 0A 09 36 2E 00 00 00 00 00 00 00 0D 6F
14:04:42.332 设备发送:02 03 04 98 00 05 05 25
14:04:42.379 设备接收:02 03 0A 09 1F 2E 0C 00 00 00 00 00 00 32 FE
14:04:42.394 设备发送:02 03 04 A3 00 05 74 E8
14:04:42.410 设备接收:02 03 0A 09 3B 2D EA 00 00 00 00 00 00 5E 24
14:04:42.426 设备发送:02 03 06 84 00 04 04 9B
14:04:42.441 设备接收:02 03 08 00 00 74 F0 00 14 24 06 0B 34
14:04:42.472 设备发送:02 03 04 04 00 01 C4 C8
14:04:42.488 设备接收:02 03 02 00 02 7D 85
14:04:42.504 设备发送:02 03 05 84 00 0F 45 18
14:04:42.520 设备接收:04 03 08 13 85 04 64 00 02 04 67 83 6C
14:04:42.534 设备发送:04 03 04 8D 00 05 14 87
14:04:42.565 设备接收:04 03 0A 09 3C 06 32 00 00 00 00 00 00 6A 74
14:04:42.581 设备发送:04 03 04 98 00 05 05 43
14:04:42.596 设备接收:04 03 0A 09 33 06 31 00 00 00 00 00 00 18 84
14:04:42.611 设备发送:04 03 04 A3 00 05 74 8E
14:04:42.642 设备接收:04 03 0A 09 3A 06 2F 00 00 00 00 00 00 8C D5
14:04:42.658 设备发送:04 03 06 84 00 04 04 FD
14:04:42.674 设备接收:04 03 08 00 00 11 78 00 02 E0 44 CF 63
14:04:42.689 设备发送:04 03 04 04 00 01 C4 AE
14:04:42.704 设备接收:04 03 02 00 02 F5 85
14:04:42.735 设备发送:04 03 05 84 00 0F 45 7E
14:04:42.750 设备接收:04 03 1E 1A 12 03 62 02 42 1A 17 03 47 02 30 00 0C 00 00 00 00 00 00 00 00 00 00 00 00 00 00 00 00 E2 F5
14:04:42.766 设备发送:04 03 05 93 00 0F F5 7A
14:04:42.782 设备接收:04 03 1E 00 00 00 00 00 00 00 00 00 00 00 00 00 00 00 00 00 00 00 00 00 00 00 00 00 00 00 00 00 00 04 BB
14:04:42.797 设备发送:04 03 05 A2 00 0F A4 B5
14:04:42.812 设备接收:04 03 1E 00 00 00 00 00 00 00 00 00 00 00 00 00 00 00 00 00 00 00 00 00 00 00 00 00 00 00 00 00 00 04 BB
14:04:42.828 设备发送:04 03 05 B1 00 03 55 75
14:04:42.844 设备接收:04 03 06 00 00 00 00 00 00 1E 25
14:04:42.860 设备发送:04 03 04 2B 00 01 F5 67
14:04:42.875 设备接收:04 03 02 01 FF 35 94
14:04:42.891 设备发送:04 03 04 20 00 01 84 A5
14:04:42.906 设备接收:04 03 02 00 19 B5 8E
14:04:42.922 设备发送:04 03 04 05 00 01 95 6E
14:04:47.202 设备接收:04 03 02 00 00 74 44
14:04:47.218 设备发送:14 03 00 09 00 06 17 0F
14:04:52.215 设备接收:14 03 0C 14 12 08 35 27 8F 00 00 0A 06 00 00 1D 63
14:04:52.262 设备发送:01 03 04 84 00 04 05 10
14:04:55.33200

