
10:00:28.284 设备接收:02 03 02 00 46 7D B6
10:00:28.299 设备发送:02 03 04 05 00 01 95 08
10:00:33.285 设备接收:02 03 02 00 00 FC 44
10:00:33.316 设备发送:03 03 04 84 00 04 04 F2
10:00:38.314 设备接收:03 03 08 13 83 16 7E FF C7 16 7F 89 2B
10:00:38.330 设备发送:03 03 04 8D 00 05 15 30
10:00:43.346 设备接收:03 03 0A 09 1C 20 48 00 00 00 00 00 00 A1 07
10:00:43.378 设备发送:03 03 04 98 00 05 04 F4
10:00:48.379 设备接收:03 03 0A 09 0E 20 58 00 00 00 00 00 00 64 66
10:00:48.395 设备发送:03 03 04 A3 00 05 75 39
10:00:53.387 设备接收:03 03 0A 09 1D 20 82 00 00 00 00 00 00 C6 9B
10:00:53.403 设备发送:03 03 06 84 00 04 05 4A
10:00:58.389 设备接收:03 03 08 00 00 11 FF 00 11 AD FC A5 EE
10:00:58.421 设备发送:03 03 04 04 00 01 C5 19
10:01:03.406 设备接收:03 03 02 00 02 40 45
10:01:03.452 设备发送:03 03 05 84 00 0F 44 C9
10:01:08.434 设备接收:03 03 1E 19 32 05 1F 03 4D 18 F0 05 4B 03 61 19 23 05 38 03 5C 18 8A 02 87 01 96 1E 11 05 35 04 02 36 C0
10:01:08.464 设备发送:03 03 05 93 00 0F F4 CD
10:01:13.444 设备接收:03 03 1E 1E 5B 02 A5 02 0E 15 AF 02 99 01 71 17 56 02 8B 01 85 15 98 05 67 02 FC 05 07 00 07 00 00 E5 26
10:01:13.459 设备发送:03 03 05 A2 00 0F A5 02
10:01:18.477 设备接收:03 03 1E 00 05 00 00 00 00 00 05 00 04 00 00 00 00 00 00 00 00 00 00 00 00 00 00 00 00 00 00 00 00 7B 97
10:01:18.493 设备发送:03 03 05 B1 00 03 54 C2
10:01:23.495 设备接收:03 03 06 00 00 00 00 00 00 38 15
10:01:23.526 设备发送:03 03 04 2B 00 01 F4 D0
10:01:28.523 设备接收:03 03 02 02 73 81 01
10:01:28.538 设备发送:03 03 04 20 00 01 85 12
10:01:33.534 设备接收:03 03 02 00 37 80 52
10:01:33.550 设备发送:03 03 04 05 00 01 94 D9
10:01:38.567 设备接收:03 03 02 00 00 C1 84
10:01:38.583 设备发送:04 03 04 84 00 04 05 45
10:01:43.587 设备接收:04 03 08 13 8C 03 A6 00 0E 03 A9 21 AD
10:01:43.603 设备发送:04 03 04 8D 00 05 14 87
10:01:48.615 设备接收:04 03 0A 09 28 05 35 00 00 00 00 00 00 A3 A1
10:01:48.631 设备发送:04 03 04 98 00 05 05 43
10:01:53.631 设备接收:04 03 0A 09 21 05 36 00 00 00 00 00 00 FA F1
10:01:53.647 设备发送:04 03 04 A3 00 05 74 8E
10:01:58.640 设备接收:04 03 0A 09 29 05 37 00 00 00 00 00 00 8D F1
10:01:58.655 设备发送:04 03 06 84 00 04 04 FD
10:02:03.673 设备接收:04 03 08 00 00 04 38 00 02 DC 19 1C 90
10:02:03.688 设备发送:04 03 04 04 00 01 C4 AE
10:02:08.683 设备接收:04 03 02 00 02 F5 85
10:02:08.699 设备发送:04 03 05 84 00 0F 45 7E
10:02:13.706 设备接收:04 03 1E 1A CB 02 CB 01 EA 1A DC 02 B4 01 DC 00 0D 00 00 00 00 00 00 00 00 00 00 00 00 00 00 00 00 5F FB
10:02:13.722 设备发送:04 03 05 93 00 0F F5 7A
10:02:18.760 设备接收:04 03 1E 00 00 00 00 00 00 00 00 00 00 00 00 00 00 00 00 00 00 00 00 00 00 00 00 00 00 00 00 00 00 04 BB
10:02:18.775 设备发送:04 03 05 A2 00 0F A4 B5
10:02:23.764 设备接收:04 03 1E 00 00 00 00 00 00 00 00 00 00 00 00 00 00 00 00 00 00 00 00 00 00 00 00 00 00 00 00 00 00 04 BB
10:02:23.795 设备发送:04 03 05 B1 00 03 55 75
10:02:28.771 设备接收:04 03 06 00 00 00 00 00 00 1E 25
10:02:28.786 设备发送:04 03 04 2B 00 01 F5 67
10:02:33.814 设备接收:04 03 02 02 38 74 F6
10:02:33.830 设备发送:04 03 04 20 00 01 84 A5
10:02:38.826 设备接收:04 03 02 00 19 B5 8E
10:02:38.841 设备发送:04 03 04 05 00 01 95 6E
10:02:43.815 设备接收:04 03 02 00 00 74 44
10:02:43.861 设备发送:14 03 00 09 00 06 17 0F
10:02:48.842 设备接收:14 03 0C 11 A8 0F 10 27 E9 00 00 0B AA 00 00 B6 E5
10:02:48.873 设备发送:01 03 04 84 00 04 05 10
10:02:53.881 设备接收:01 03 08 13 85 17 37 FF C5 17 37 98 EA
10:02:53.897 设备发送:01 03 04 8D 00 05 14 D2
10:02:58.892 设备接收:01 03 0A 09 0E 21 56 00 00 00 00 00 00 4D 28
10:02:58.941 设备发送:01 03 04 98 00 05 05 16
10:03:03.924 设备接收:01 03 0A 09 14 21 52 00 00 00 00 00 00 BB 88
10:03:03.940 设备发送:01 03 04 A3 00 05 74 DB
10:03:08.921 设备接收:01 03 0A 09 15 21 3B 00 00 00 00 00 00 4F 1E
10:03:08.968 设备发送:01 03 06 84 00 04 04 A8
10:03:13.960 设备接收:01 03 08 00 00 15 92 00 12 EF 1C C3 33
10:03:13.976 设备发送:01 03 04 04 00 01 C4 FB
10:03:18.986 设备接收:01 03 02 00 02 39 85
10:03:19.002 设备发送:01 03 05 84 00 0F 45 2B
10:03:23.998 设备接收:01 03 1E 19 12 05 4E 03 68 19 57 04 90 02 F6 1E 4A 05 38 04 0C 19 0D 05 36 03 58 18 DE 04 77 02 D7 69 10
10:03:24.013 设备发送:01 03 05 93 00 0F F5 2F
10:03:29.030 设备接收:01 03 1E 1B 1C 05 24 03 91 1A 7A 02 C7 01 E1 1E 0A 02 AE 02 0F 04 F6 00 00 00 00 04 FC 00 00 00 00 9D F0
10:03:29.189 设备发送:01 03 05 A2 00 0F A4 E0
10:03:34.030 设备接收:01 03 1E 00 0A 00 00 00 00 00 00 00 00 00 00 00 00 00 00 00 00 00 00 00 00 00 00 00 00 00 00 00 00 58 B7
10:03:34.045 设备发送:01 03 05 B1 00 03 55 20
10:03:39.068 设备接收:01 03 06 00 00 00 00 00 00 21 75
10:03:39.083 设备发送:01 03 04 2B 00 01 F5 32
10:03:44.082 设备接收:01 03 02 02 48 B9 12
10:03:44.098 设备发送:01 03 04 20 00 01 84 F0
10:03:49.097 设备接收:01 03 02 00 24 B8 5F
10:03:49.113 设备发送:01 03 04 05 00 01 95 3B
10:03:54.124 设备接收:01 03 02 00 00 B8 44
10:03:54.141 设备发送:02 03 04 84 00 04 05 23
10:03:59.137 设备接收:02 03 08 13 88 19 B0 FF 63 19 B2 DB BE
10:03:59.152 设备发送:02 03 04 8D 00 05 14 E1
10:04:04.163 设备接收:02 03 0A 09 24 24 C3 00 00 00 00 00 00 AA BC
10:04:04.178 设备发送:02 03 04 98 00 05 05 25
10:04:09.182 设备接收:02 03 0A 09 11 24 D3 00 00 00 00 00 00 D0 2C
10:04:09.213 设备发送:02 03 04 A3 00 05 74 E8
10:04:14.186 设备接收:02 03 0A 09 25 24 D0 00 00 00 00 00 00 85 ED
10:04:14.233 设备发送:02 03 06 84 00 04 04 9B
10:04:19.229 设备接收:02 03 08 00 00 17 80 00 14 07 C3 9A 0F
10:04:19.245 设备发送:02 03 04 04 00 01 C4 C8
10:04:24.221 设备接收:02 03 02 00 02 7D 85
10:04:24.283 设备发送:02 03 05 84 00 0F 45 18
10:04:29.238 设备接收:02 03 1E 1E 40 05 36 04 09 1E 41 05 3E 04 10 1F F1 01 E5 01 8D 18 F7 05 6D 03 77 18 C6 05 53 03 61 05 7E
10:04:29.285 设备发送:02 03 05 93 00 0F F5 1C
10:04:34.277 设备接收:02 03 1E 18 E4 02 D1 01 CB 1E 4E 02 BD 02 20 1F 1D 02 D6 02 42 1E 18 05 3F 04 0B 00 00 00 04 00 00 39 9C
10:04:34.293 设备发送:02 03 05 A2 00 0F A4 D3
10:04:39.321 设备接收:02 03 1E 00 00 00 00 00 00 00 00 00 00 00 00 00 00 00 00 00 00 00 00 00 00 00 00 00 00 00 00 00 00 6C BA
10:04:39.337 设备发送:02 03 05 B1 00 03 55 13
10:04:44.320 设备接收:02 03 06 00 00 00 00 00 00 35 85
10:04:44.352 设备发送:02 03 04 2B 00 01 F5 01
10:04:49.360 设备接收:02 03 02 02 47 BD 16
10:04:49.375 设备发送:02 03 04 20 00 01 84 C3
10:04:54.353 设备接收:02 03 02 00 42 7C 75
10:04:54.368 设备发送:02 03 04 05 00 01 95 08
10:04:59.378 设备接收:02 03 02 00 00 FC 44
10:04:59.394 设备发送:03 03 04 84 00 04 04 F2
10:05:04.403 设备接收:03 03 08 13 8B 17 27 FF C3 17 27 5C 9C
10:05:04.418 设备发送:03 03 04 8D 00 05 15 30
10:05:09.441 设备接收:03 03 0A 09 21 21 18 00 00 00 00 00 00 3C 5F
10:05:09.457 设备发送:03 03 04 98 00 05 04 F4
10:05:14.461 设备接收:03 03 0A 09 14 21 2A 00 00 00 00 00 00 44 CD
10:05:14.477 设备发送:03 03 04 A3 00 05 75 39
10:05:19.496 设备接收:03 03 0A 09 24 21 54 00 00 00 00 00 00 8E CB
10:05:19.512 设备发送:03 03 06 84 00 04 05 4A
10:05:24.480 设备接收:03 03 08 00 00 13 B3 00 11 AE 28 B5 6D
10:05:24.496 设备发送:03 03 04 04 00 01 C5 19
10:05:29.519 设备接收:03 03 02 00 02 40 45
10:05:29.535 设备发送:03 03 05 84 00 0F 44 C9
10:05:34.541 设备接收:03 03 1E 18 E3 05 58 03 68 18 C9 05 78 03 78 18 D5 05 67 03 6F 18 3C 02 A3 01 A3 1D EA 05 60 04 1E 63 7A
10:05:34.557 设备发送:03 03 05 93 00 0F F4 CD
10:05:39.537 设备接收:03 03 1E 1D B9 02 C3 02 1A 15 B0 02 AF 01 7D 17 2F 02 A5 01 92 15 4A 05 99 03 0D 05 01 00 0C 00 01 71 07
10:05:39.569 设备发送:03 03 05 A2 00 0F A5 02
10:05:44.581 设备接收:03 03 1E 00 04 00 00 00 00 00 05 00 04 00 00 00 00 00 00 00 00 00 00 00 00 00 00 00 00 00 00 00 00 BB 96
10:05:44.597 设备发送:03 03 05 B1 00 03 54 C2
10:05:49.578 设备接收:03 03 06 00 00 00 00 00 00 38 15
10:05:49.625 设备发送:03 03 04 2B 00 01 F4 D0
10:05:54.622 设备接收:03 03 02 02 73 81 01
10:05:54.638 设备发送:03 03 04 20 00 01 85 12
10:05:59.631 设备接收:03 03 02 00 2B 81 9B
10:05:59.646 设备发送:03 03 04 05 00 01 94 D9
10:06:04.644 设备接收:03 03 02 00 00 C1 84
10:06:04.691 设备发送:04 03 04 84 00 04 05 45
10:06:09.666 设备接收:04 03 08 13 88 03 BD 00 0C 03 C0 61 81
10:06:09.698 设备发送:04 03 04 8D 00 05 14 87
10:06:14.711 设备接收:04 03 0A 09 2A 05 5A 00 00 00 00 00 00 25 C7
10:06:14.727 设备发送:04 03 04 98 00 05 05 43
10:06:19.739 设备接收:04 03 0A 09 21 05 5B 00 00 00 00 00 00 46 37
10:06:19.754 设备发送:04 03 04 A3 00 05 74 8E
10:06:24.724 设备接收:04 03 0A 09 2C 05 53 00 00 00 00 00 00 97 67
10:06:24.771 设备发送:04 03 06 84 00 04 04 FD
10:06:29.768 设备接收:04 03 08 00 00 04 7E 00 02 DC 20 55 4D
10:06:29.783 设备发送:04 03 04 04 00 01 C4 AE
10:06:34.791 设备接收:04 03 02 00 02 F5 85
10:06:34.807 设备发送:04 03 05 84 00 0F 45 7E
10:06:39.806 设备接收:04 03 1E 1A CB 02 DD 01 F7 1A B5 02 C6 01 E6 00 0D 00 00 00 00 00 00 00 00 00 00 00 00 00 00 00 00 D7 81
10:06:39.837 设备发送:04 03 05 93 00 0F F5 7A
10:06:44.853 设备接收:04 03 1E 00 00 00 00 00 00 00 00 00 00 00 00 00 00 00 00 00 00 00 00 00 00 00 00 00 00 00 00 00 00 04 BB
10:06:44.868 设备发送:04 03 05 A2 00 0F A4 B5
10:06:49.842 设备接收:04 03 1E 00 00 00 00 00 00 00 00 00 00 00 00 00 00 00 00 00 00 00 00 00 00 00 00 00 00 00 00 00 00 04 BB
10:06:49.858 设备发送:04 03 05 B1 00 03 55 75
10:06:54.873 设备接收:04 03 06 00 00 00 00 00 00 1E 25
10:06:54.889 设备发送:04 03 04 2B 00 01 F5 67
10:06:59.889 设备接收:04 03 02 02 38 74 F6
10:06:59.905 设备发送:04 03 04 20 00 01 84 A5
10:07:04.918 设备接收:04 03 02 00 19 B5 8E
10:07:04.934 设备发送:04 03 04 05 00 01 95 6E
10:07:09.915 设备接收:04 03 02 00 00 74 44
10:07:09.930 设备发送:14 03 00 09 00 06 17 0F
10:07:14.960 设备接收:14 03 0C 11 DC 0E 89 27 E9 00 00 0C 2F 00 00 8E 1A
10:07:14.975 设备发送:01 03 04 84 00 04 05 10
10:07:19.985 设备接收:01 03 08 13 89 18 3C FF 67 18 3E 95 C0
10:07:20.001 设备发送:01 03 04 8D 00 05 14 D2
10:07:24.25400

