
14:14:05.908 设备接收:01 03 0A 09 13 1E DF 00 00 00 00 00 00 83 E4
14:14:05.924 设备发送:01 03 04 98 00 05 05 16
14:14:10.897 设备接收:01 03 0A 09 18 1F 3D 00 00 00 00 00 00 F3 16
14:14:10.945 设备发送:01 03 04 A3 00 05 74 DB
14:14:15.915 设备接收:01 03 0A 09 19 1F E0 00 00 00 00 00 00 F3 8B
14:14:15.930 设备发送:01 03 06 84 00 04 04 A8
14:14:20.942 设备接收:01 03 08 00 00 72 84 00 13 0A 26 19 A4
14:14:20.957 设备发送:01 03 04 04 00 01 C4 FB
14:14:25.949 设备接收:01 03 02 00 02 39 85
14:14:25.981 设备发送:01 03 05 84 00 0F 45 2B
14:14:30.995 设备接收:01 03 1E 19 0B 05 06 03 39 18 64 05 0F 03 28 1D B8 04 E6 03 BA 18 8C 04 EE 03 19 18 75 05 20 03 35 28 CC
14:14:31.011 设备发送:01 03 05 93 00 0F F5 2F
14:14:36.012 设备接收:01 03 1E 1A 72 04 E6 03 51 1A 36 02 97 01 BD 1D B1 02 8B 01 EF 04 E1 00 00 00 00 04 E6 00 00 00 00 99 A8
14:14:36.028 设备发送:01 03 05 A2 00 0F A4 E0
14:14:41.020 设备接收:01 03 1E 00 0A 00 00 00 00 00 00 00 00 00 00 00 00 00 00 00 00 00 00 00 00 00 00 00 00 00 00 00 00 58 B7
14:14:41.036 设备发送:01 03 05 B1 00 03 55 20
14:14:46.035 设备接收:01 03 06 00 00 00 00 00 00 21 75
14:14:46.066 设备发送:01 03 04 2B 00 01 F5 32
14:14:51.064 设备接收:01 03 02 01 88 B9 B2
14:14:51.080 设备发送:01 03 04 20 00 01 84 F0
14:14:56.098 设备接收:01 03 02 00 29 79 9A
14:14:56.114 设备发送:01 03 04 05 00 01 95 3B
14:15:01.116 设备接收:01 03 02 00 00 B8 44
14:15:01.132 设备发送:02 03 04 84 00 04 05 23
14:15:06.118 设备接收:02 03 08 13 86 18 0A FF CA 18 0A 3D B6
14:15:06.134 设备发送:02 03 04 8D 00 05 14 E1
14:15:11.150 设备接收:02 03 0A 09 21 22 30 00 00 00 00 00 00 D6 C9
14:15:11.181 设备发送:02 03 04 98 00 05 05 25
14:15:16.171 设备接收:02 03 0A 09 13 22 32 00 00 00 00 00 00 B8 68
14:15:16.203 设备发送:02 03 04 A3 00 05 74 E8
14:15:21.173 设备接收:02 03 0A 09 2B 21 F0 00 00 00 00 00 00 28 70
14:15:21.189 设备发送:02 03 06 84 00 04 04 9B
14:15:26.211 设备接收:02 03 08 00 00 7A C6 00 14 24 9C 42 75
14:15:26.226 设备发送:02 03 04 04 00 01 C4 C8
14:15:31.220 设备接收:02 03 02 00 02 7D 85
14:15:31.235 设备发送:02 03 05 84 00 0F 45 18
14:15:36.264 设备接收:02 03 1E 1E 06 04 B6 03 9F 1D 90 04 CC 03 A1 1D 4A 02 5D 01 C6 18 61 05 14 03 2B 18 30 04 D2 02 FC 46 58
14:15:36.280 设备发送:02 03 05 93 00 0F F5 1C
14:15:41.249 设备接收:02 03 1E 18 6E 02 A0 01 A4 1D 6F 02 99 01 F5 1E BD 02 A5 02 15 1D CE 04 CC 03 A9 00 00 00 06 00 00 A5 28
14:15:41.264 设备发送:02 03 05 A2 00 0F A4 D3
14:15:46.303 设备接收:02 03 1E 00 00 00 00 00 00 00 00 00 00 00 00 00 00 00 00 00 00 00 00 00 00 00 00 00 00 00 00 00 00 6C BA
14:15:46.319 设备发送:02 03 05 B1 00 03 55 13
14:15:51.297 设备接收:02 03 06 00 00 00 00 00 00 35 85
14:15:51.313 设备发送:02 03 04 2B 00 01 F5 01
14:15:56.313 设备接收:02 03 02 01 9E 7C 7C
14:15:56.359 设备发送:02 03 04 20 00 01 84 C3
14:16:01.339 设备接收:02 03 02 00 46 7D B6
14:16:01.355 设备发送:02 03 04 05 00 01 95 08
14:16:06.363 设备接收:02 03 02 00 00 FC 44
14:16:06.379 设备发送:03 03 04 84 00 04 04 F2
14:16:11.378 设备接收:03 03 08 13 88 15 9E FF CC 15 9E 03 74
14:16:11.394 设备发送:03 03 04 8D 00 05 15 30
14:16:16.429 设备接收:03 03 0A 09 24 1E A3 00 00 00 00 00 00 4B 50
14:16:16.445 设备发送:03 03 04 98 00 05 04 F4
14:16:21.422 设备接收:03 03 0A 09 1D 1F 18 00 00 00 00 00 00 BF C6
14:16:21.438 设备发送:03 03 04 A3 00 05 75 39
14:16:26.427 设备接收:03 03 0A 09 2F 1E 86 00 00 00 00 00 00 4C A2
14:16:26.474 设备发送:03 03 06 84 00 04 05 4A
14:16:31.470 设备接收:03 03 08 00 00 6B C7 00 11 C7 80 20 F0
14:16:31.488 设备发送:03 03 04 04 00 01 C5 19
14:16:36.480 设备接收:03 03 02 00 02 40 45
14:16:36.496 设备发送:03 03 05 84 00 0F 44 C9
14:16:41.500 设备接收:03 03 1E 18 C8 04 AC 02 F7 18 78 04 FC 03 1F 18 A4 04 DC 03 11 17 BB 02 4F 01 67 1D A2 04 AB 03 8A C7 2D
14:16:41.516 设备发送:03 03 05 93 00 0F F4 CD
14:16:46.532 设备接收:03 03 1E 1D 3D 02 72 01 D5 15 5A 02 5A 01 49 16 CF 02 42 01 51 15 0E 04 E9 02 A5 04 F2 00 0D 00 01 C4 8D
14:16:46.548 设备发送:03 03 05 A2 00 0F A5 02
14:16:51.550 设备接收:03 03 1E 00 05 00 00 00 00 00 05 00 05 00 00 00 00 00 00 00 00 00 00 00 00 00 00 00 00 00 00 00 00 6B 46
14:16:51.566 设备发送:03 03 05 B1 00 03 54 C2
14:16:56.561 设备接收:03 03 06 00 00 00 00 00 00 38 15
14:16:56.576 设备发送:03 03 04 2B 00 01 F4 D0
14:17:01.595 设备接收:03 03 02 01 9D 01 BD
14:17:01.611 设备发送:03 03 04 20 00 01 85 12
14:17:06.600 设备接收:03 03 02 00 38 C0 56
14:17:06.615 设备发送:03 03 04 05 00 01 94 D9
14:17:11.625 设备接收:03 03 02 00 00 C1 84
14:17:11.655 设备发送:04 03 04 84 00 04 05 45
14:17:16.628 设备接收:04 03 08 13 8C 03 03 00 09 03 06 9C 09
14:17:16.644 设备发送:04 03 04 8D 00 05 14 87
14:17:21.650 设备接收:04 03 0A 09 32 04 72 00 00 00 00 00 00 E6 09
14:17:21.681 设备发送:04 03 04 98 00 05 05 43
14:17:26.672 设备接收:04 03 0A 09 25 04 8B 00 00 00 00 00 00 64 F6
14:17:26.688 设备发送:04 03 04 A3 00 05 74 8E
14:17:31.705 设备接收:04 03 0A 09 2A 04 AF 00 00 00 00 00 00 41 04
14:17:31.736 设备发送:04 03 06 84 00 04 04 FD
14:17:36.704 设备接收:04 03 08 00 00 12 43 00 02 E0 58 2B 5C
14:17:36.719 设备发送:04 03 04 04 00 01 C4 AE
14:17:41.731 设备接收:04 03 02 00 02 F5 85
14:17:41.746 设备发送:04 03 05 84 00 0F 45 7E
14:17:46.753 设备接收:04 03 1E 1A 63 02 7C 01 AD 1A 3F 02 6F 01 A3 00 0D 00 00 00 00 00 00 00 00 00 00 00 00 00 00 00 00 47 84
14:17:46.784 设备发送:04 03 05 93 00 0F F5 7A
14:17:51.793 设备接收:04 03 1E 00 00 00 00 00 00 00 00 00 00 00 00 00 00 00 00 00 00 00 00 00 00 00 00 00 00 00 00 00 00 04 BB
14:17:51.808 设备发送:04 03 05 A2 00 0F A4 B5
14:17:56.812 设备接收:04 03 1E 00 00 00 00 00 00 00 00 00 00 00 00 00 00 00 00 00 00 00 00 00 00 00 00 00 00 00 00 00 00 04 BB
14:17:56.827 设备发送:04 03 05 B1 00 03 55 75
14:18:01.826 设备接收:04 03 06 00 00 00 00 00 00 1E 25
14:18:01.842 设备发送:04 03 04 2B 00 01 F5 67
14:18:06.828 设备接收:04 03 02 01 FF 35 94
14:18:06.843 设备发送:04 03 04 20 00 01 84 A5
14:18:11.851 设备接收:04 03 02 00 19 B5 8E
14:18:11.867 设备发送:04 03 04 05 00 01 95 6E
14:18:16.861 设备接收:04 03 02 00 00 74 44
14:18:16.893 设备发送:14 03 00 09 00 06 17 0F
14:18:21.904 设备接收:14 03 0C 13 FD 08 24 27 8E 00 00 08 CA 00 00 9E 68
14:18:21.937 设备发送:01 03 04 84 00 04 05 10
14:18:26.903 设备接收:01 03 08 13 8B 14 86 FF C5 14 86 CB 87
14:18:26.935 设备发送:01 03 04 8D 00 05 14 D2
14:18:31.939 设备接收:01 03 0A 09 15 1E 4C 00 00 00 00 00 00 0B 4D
14:18:31.955 设备发送:01 03 04 98 00 05 05 16
14:18:36.979 设备接收:01 03 0A 09 1B 1E 31 00 00 00 00 00 00 EA 2A
14:18:36.995 设备发送:01 03 04 A3 00 05 74 DB
14:18:41.964 设备接收:01 03 0A 09 1C 1E 5A 00 00 00 00 00 00 16 DC
14:18:42.011 设备发送:01 03 06 84 00 04 04 A8
14:18:47.003 设备接收:01 03 08 00 00 74 26 00 13 0A 50 61 FD
14:18:47.021 设备发送:01 03 04 04 00 01 C4 FB
14:18:52.026 设备接收:01 03 02 00 02 39 85
14:18:52.041 设备发送:01 03 05 84 00 0F 45 2B
14:18:57.039 设备接收:01 03 1E 18 E7 04 C6 03 0B 18 8B 04 C3 02 FE 1D B8 04 98 03 7F 18 DB 04 91 02 E8 18 74 04 D1 03 04 7A B0
14:18:57.057 设备发送:01 03 05 93 00 0F F5 2F
14:19:02.045 设备接收:01 03 1E 1A 73 04 8B 03 13 1A 37 02 69 01 9E 1D B1 02 5B 01 CA 04 E3 00 00 00 00 04 E8 00 00 00 00 92 3E
14:19:02.060 设备发送:01 03 05 A2 00 0F A4 E0
14:19:07.090 设备接收:01 03 1E 00 0A 00 00 00 00 00 00 00 00 00 00 00 00 00 00 00 00 00 00 00 00 00 00 00 00 00 00 00 00 58 B7
14:19:07.106 设备发送:01 03 05 B1 00 03 55 20
14:19:12.097 设备接收:01 03 06 00 00 00 00 00 00 21 75
14:19:12.113 设备发送:01 03 04 2B 00 01 F5 32
14:19:17.120 设备接收:01 03 02 01 88 B9 B2
14:19:17.136 设备发送:01 03 04 20 00 01 84 F0
14:19:22.133 设备接收:01 03 02 00 38 B9 96
14:19:22.149 设备发送:01 03 04 05 00 01 95 3B
14:19:27.149 设备接收:01 03 02 00 00 B8 44
14:19:27.165 设备发送:02 03 04 84 00 04 05 23
14:19:32.184 设备接收:02 03 08 13 8B 16 B9 00 22 16 B9 10 77
14:19:32.199 设备发送:02 03 04 8D 00 05 14 E1
14:19:37.213 设备接收:02 03 0A 09 23 1F DD 00 00 00 00 00 00 30 2A
14:19:37.229 设备发送:02 03 04 98 00 05 05 25
14:19:42.205 设备接收:02 03 0A 09 15 1F 11 00 00 00 00 00 00 43 87
14:19:42.220 设备发送:02 03 04 A3 00 05 74 E8
14:19:47.226 设备接收:02 03 0A 09 2C 1E F3 00 00 00 00 00 00 7E 14
14:19:47.257 设备发送:02 03 06 84 00 04 04 9B
14:19:52.265 设备接收:02 03 08 00 00 7C 78 00 14 24 C7 2B F3
14:19:52.344 设备发送:02 03 04 04 00 01 C4 C8
14:19:57.263 设备接收:02 03 02 00 02 7D 85
14:19:57.294 设备发送:02 03 05 84 00 0F 45 18
14:20:02.287 设备接收:02 03 1E 1D E4 04 87 03 77 1D B8 04 8D 03 76 1D 75 02 3E 01 B1 18 B2 04 CE 03 09 18 5D 04 8F 02 D8 B1 A5
14:20:02.303 设备发送:02 03 05 93 00 0F F5 1C
14:20:07.320 设备接收:02 03 1E 18 BA 02 74 01 8E 1D BC 02 73 01 DD 1E E0 02 7B 01 F6 1D A2 04 86 03 6E 00 00 00 06 00 00 4B 0E
14:20:07.338 设备发送:02 03 05 A2 00 0F A4 D3
14:20:12.336 设备接收:02 03 1E 00 00 00 00 00 00 00 00 00 00 00 00 00 00 00 00 00 00 00 00 00 00 00 00 00 00 00 00 00 00 6C BA
14:20:12.352 设备发送:02 03 05 B1 00 03 55 13
14:20:17.338 设备接收:02 03 06 00 00 00 00 00 00 35 85
14:20:17.370 设备发送:02 03 04 2B 00 01 F5 01
14:20:22.374 设备接收:02 03 02 01 9E 7C 7C
14:20:22.390 设备发送:02 03 04 20 00 01 84 C3
14:20:27.388 设备接收:02 03 02 00 43 BD B5
14:20:27.404 设备发送:02 03 04 05 00 01 95 08
14:20:32.403 设备接收:02 03 02 00 00 FC 44
14:20:32.418 设备发送:03 03 04 84 00 04 04 F2
14:20:37.429 设备接收:03 03 08 13 86 13 17 FF CE 13 17 52 CB
14:20:37.460 设备发送:03 03 04 8D 00 05 15 30
14:20:42.458 设备接收:03 03 0A 09 27 1B 60 00 00 00 00 00 00 6C 93
14:20:42.474 设备发送:03 03 04 98 00 05 04 F4
14:20:47.462 设备接收:03 03 0A 09 19 1B 87 00 00 00 00 00 00 E3 FC
14:20:47.509 设备发送:03 03 04 A3 00 05 75 39
14:20:52.497 设备接收:03 03 0A 09 2B 1B 53 00 00 00 00 00 00 3A 90
14:20:52.513 设备发送:03 03 06 84 00 04 05 4A
14:20:57.510 设备接收:03 03 08 00 00 6D 3E 00 11 C7 A5 7D 59
14:20:57.526 设备发送:03 03 04 04 00 01 C5 19
14:21:02.538 设备接收:03 03 02 00 02 40 45
14:21:02.554 设备发送:03 03 05 84 00 0F 44 C9
14:21:07.543 设备接收:03 03 1E 18 C9 04 61 02 C7 18 53 04 B6 02 EF 18 CF 04 8C 02 E3 17 E2 02 29 01 52 1D A4 04 67 03 57 0F 05
14:21:07.554 设备发送:03 03 05 93 00 0F F4 CD
14:21:07.62600

